can2 0CF00400 [8] FE 7D 7D 00 00 00 FF 7D
can2 18F00100 [8] FF FF FF CF 00 FF FF FF
can2 08FE6E0B [8] 00 00 00 00 00 00 00 00
can2 08FE6E0B [8] 00 00 00 00 00 00 00 00
can2 18EBFF00 [8] 01 00 19 CB 30 39 C3 38
can2 18FEF200 [8] 00 00 00 00 3C 05 FF FF
can2 18FEF600 [8] FF 00 19 FF FF FF FF FF
can2 0CF00300 [8] F9 FE 00 FF FF FF FF FF
can2 0CF00400 [8] FE 7D 7D 00 00 00 FF 7D
can2 18FEF000 [8] FF FF FF 00 00 F0 CC FF
can2 0CF00400 [8] FE 7D 7D 00 00 00 FF 7D
can2 08FE6E0B [8] 00 00 00 00 00 00 00 00
can2 18FEBF0B [8] 00 00 7D 7D 7D 7D FF FF
can2 18FEDF00 [8] 8A E0 2E 7D FF FF FF FF
can2 18FEF200 [8] 00 00 00 00 3C 05 FF FF
can2 18F00100 [8] FF FF FF CF 00 FF FF FF
can2 0CF00300 [8] F9 FE 00 FF FF FF FF FF
can2 0CF00400 [8] FE 7D 7D 00 00 00 FF 7D
can2 18EBFF0B [8] 01 04 FF 73 02 04 7F 73
can2 18F0010B [8] CF FF F0 FF FF DC FF FF
can2 18FEF000 [8] FF FF FF 00 00 F0 CC FF
can2 08FE6E0B [8] 00 00 00 00 00 00 00 00
can2 0CF00300 [8] F9 FE 00 FF FF FF FF FF
can2 18EBFF00 [8] 05 80 39 55 02 FF FF FF
can2 0CF00400 [8] FE 7D 7D 00 00 00 FF 7D
can2 18FEF200 [8] 00 00 00 00 3C 05 FF FF
can2 08FE6E0B [8] 00 00 00 00 00 00 00 00
can2 08FE6E0B [8] 00 00 00 00 00 00 00 00
can2 0CF00400 [8] FE 7D 7D 00 00 00 FF 7D
can2 18FEEE00 [8] 17 FF 00 20 FF FF FF FF
can2 0CF00400 [8] FE 7D 7D 00 00 00 FF 7D
can2 18FEBF0B [8] 00 00 7D 7D 7D 7D FF FF
can2 18FEF000 [8] FF FF FF 00 00 F0 CC FF
can2 18FEF200 [8] 00 00 00 00 3C 05 FF FF
can2 0CF00400 [8] FE 7D 7D 00 00 00 FF 7D
can2 08FE6E0B [8] 00 00 00 00 00 00 00 00
can2 08FE6E0B [8] 00 00 00 00 00 00 00 00
can2 0CF00300 [8] F9 FE 00 FF FF FF FF FF
can2 18FEF100 [8] FF 00 00 50 00 00 00 C0
can2 18F00100 [8] FF FF FF CF 00 FF FF FF
can2 08FE6E0B [8] 00 00 00 00 00 00 00 00
can2 0CF00400 [8] FE 7D 7D 00 00 00 FF 7D
can2 08FE6E0B [8] 00 00 00 00 00 00 00 00
can2 18FEF000 [8] FF FF FF 00 00 F0 CC FF
can2 0CF00400 [8] FE 7D 7D 00 00 00 FF 7D
can2 08FE6E0B [8] 00 00 00 00 00 00 00 00
can2 0CF00300 [8] F9 FE 00 FF FF FF FF FF
can2 18FEF100 [8] FF 00 00 50 00 00 00 C0
can2 0CF00400 [8] FE 7D 7D 00 00 00 FF 7D
can2 18EBFF00 [8] 02 00 04 01 78 02 03 01
can2 18F00100 [8] FF FF FF CF 00 FF FF FF
can2 08FE6E0B [8] 00 00 00 00 00 00 00 00
can2 0CF00400 [8] FE 7D 7D 00 00 00 FF 7D
can2 08FE6E0B [8] 00 00 00 00 00 00 00 00
can2 18F0010B [8] CF FF F0 FF FF DC FF FF
can2 08FE6E0B [8] 00 00 00 00 00 00 00 00
can2 0CF00300 [8] F9 FE 00 FF FF FF FF FF
can2 08FE6E0B [8] 00 00 00 00 00 00 00 00
can2 18EBFF00 [8] 04 01 64 00 04 01 6C 00
can2 18FEBF0B [8] 00 00 7D 7D 7D 7D FF FF
can2 0CF00300 [8] F9 FE 00 FF FF FF FF FF
can2 08FE6E0B [8] 00 00 00 00 00 00 00 00
can2 18FEF000 [8] FF FF FF 00 00 F0 CC FF
can2 08FE6E0B [8] 00 00 00 00 00 00 00 00
can2 0CF00400 [8] FE 7D 7D 00 00 00 FF 7D
can2 18FEBF0B [8] 00 00 7D 7D 7D 7D FF FF
can2 18FEF200 [8] 00 00 00 00 3C 05 FF FF
can2 08FE6E0B [8] 00 00 00 00 00 00 00 00
can2 08FE6E0B [8] 00 00 00 00 00 00 00 00
can2 08FE6E0B [8] 00 00 00 00 00 00 00 00
can2 0CF00400 [8] FE 7D 7D 00 00 00 FF 7D
can2 18FEF100 [8] FF 00 00 50 00 00 00 C0
can2 18FEF000 [8] FF FF FF 00 00 F0 CC FF
can2 18FEF200 [8] 00 00 00 00 3C 05 FF FF
can2 08FE6E0B [8] 00 00 00 00 00 00 00 00
can2 08FE6E0B [8] 00 00 00 00 00 00 00 00
can2 0CF00300 [8] F9 FE 00 FF FF FF FF FF
can2 18F0010B [8] CF FF F0 FF FF DC FF FF
can2 08FE6E0B [8] 00 00 00 00 00 00 00 00
can2 08FE6E0B [8] 00 00 00 00 00 00 00 00
can2 0CF00400 [8] FE 7D 7D 00 00 00 FF 7D
can2 18FEF100 [8] FF 00 00 50 00 00 00 C0
can2 18FEF000 [8] FF FF FF 00 00 F0 CC FF
can2 18FEF200 [8] 00 00 00 00 3C 05 FF FF
can2 08FE6E0B [8] 00 00 00 00 00 00 00 00
can2 08FE6E0B [8] 00 00 00 00 00 00 00 00
can2 0CF00300 [8] F9 FE 00 FF FF FF FF FF
can2 08FE6E0B [8] 00 00 00 00 00 00 00 00
can2 18FEDF00 [8] 8A E0 2E 7D FF FF FF FF
can2 18F0010B [8] CF FF F0 FF FF DC FF FF
can2 0CF00300 [8] F9 FE 00 FF FF FF FF FF
can2 08FE6E0B [8] 00 00 00 00 00 00 00 00
can2 18FEF000 [8] FF FF FF 00 00 F0 CC FF
can2 18FEBF0B [8] 00 00 7D 7D 7D 7D FF FF
can2 18FEF200 [8] 00 00 00 00 3C 05 FF FF
can2 08FE6E0B [8] 00 00 00 00 00 00 00 00
can2 18F0000F [8] C0 7D FF FF 0F FF FF FF
can2 08FE6E0B [8] 00 00 00 00 00 00 00 00
can2 18FEEF00 [8] FF FF FF FE FF FF FF FF
can2 18FEF000 [8] FF FF FF 00 00 F0 CC FF
can2 18FEF600 [8] FF 00 19 FF FF FF FF FF
can2 18F0010B [8] CF FF F0 FF FF DC FF FF
can2 18FEBF0B [8] 00 00 7D 7D 7D 7D FF FF
can2 18FEF200 [8] 00 00 00 00 3C 05 FF FF
can2 0CF00300 [8] F9 FE 00 FF FF FF FF FF
can2 08FE6E0B [8] 00 00 00 00 00 00 00 00
can2 18FEAE00 [8] FE FF FF FF FF FF FF FF
can2 0CF00300 [8] F9 FE 00 FF FF FF FF FF
can2 08FE6E0B [8] 00 00 00 00 00 00 00 00
can2 18FEF000 [8] FF FF FF 00 00 F0 CC FF
can2 08FE6E0B [8] 00 00 00 00 00 00 00 00
can2 0CF00400 [8] FE 7D 7D 00 00 00 FF 7D
can2 18FEBF0B [8] 00 00 7D 7D 7D 7D FF FF
can2 18ECFF0B [8] 20 0A 00 02 FF CA FE 00
can2 08FE6E0B [8] 00 00 00 00 00 00 00 00
can2 0CF00400 [8] FE 7D 7D 00 00 00 FF 7D
can2 08FE6E0B [8] 00 00 00 00 00 00 00 00
can2 18EBFF0B [8] 01 04 FF 73 02 04 7F 73
can2 08FE6E0B [8] 00 00 00 00 00 00 00 00
can2 0CF00400 [8] FE 7D 7D 00 00 00 FF 7D
can2 08FE6E0B [8] 00 00 00 00 00 00 00 00
can2 18F0010B [8] CF FF F0 FF FF DC FF FF
can2 08FE6E0B [8] 00 00 00 00 00 00 00 00
can2 0CF00300 [8] F9 FE 00 FF FF FF FF FF
can2 08FE6E0B [8] 00 00 00 00 00 00 00 00
can2 18FEEE00 [8] 17 FF 00 20 FF FF FF FF
can2 18FEBF0B [8] 00 00 7D 7D 7D 7D FF FF
can2 0CF00300 [8] F9 FE 00 FF FF FF FF FF
can2 08FE6E0B [8] 00 00 00 00 00 00 00 00
can2 18FEF000 [8] FF FF FF 00 00 F0 CC FF
can2 18FEBF0B [8] 00 00 7D 7D 7D 7D FF FF
can2 18FEF200 [8] 00 00 00 00 3C 05 FF FF
can2 08FE6E0B [8] 00 00 00 00 00 00 00 00
can2 08FE6E0B [8] 00 00 00 00 00 00 00 00
can2 0CF00300 [8] F9 FE 00 FF FF FF FF FF
can2 08FE6E0B [8] 00 00 00 00 00 00 00 00
can2 18FEF000 [8] FF FF FF 00 00 F0 CC FF
can2 18FEDF00 [8] 8A E0 2E 7D FF FF FF FF
can2 18FEF100 [8] FF 00 00 50 00 00 00 C0
can2 18EBFF00 [8] 01 14 FF 73 02 02 01 5E
can2 0CF00300 [8] F9 FE 00 FF FF FF FF FF
can2 0CF00400 [8] FE 7D 7D 00 00 00 FF 7D
can2 08FE6E0B [8] 00 00 00 00 00 00 00 00
can2 18FEBF0B [8] 00 00 7D 7D 7D 7D FF FF
can2 0CF00300 [8] F9 FE 00 FF FF FF FF FF
can2 0CF00400 [8] FE 7D 7D 00 00 00 FF 7D
can2 18FEEF00 [8] FF FF FF FE FF FF FF FF
can2 18FEF100 [8] FF 00 00 50 00 00 00 C0
can2 0CF00400 [8] FE 7D 7D 00 00 00 FF 7D
can2 0CF00400 [8] FE 7D 7D 00 00 00 FF 7D
can2 0CF00300 [8] F9 FE 00 FF FF FF FF FF
can2 0CF00400 [8] FE 7D 7D 00 00 00 FF 7D
can2 18FEBF0B [8] 00 00 7D 7D 7D 7D FF FF
can2 18FEF600 [8] FF 00 19 FF FF FF FF FF
can2 0CF00400 [8] FE 7D 7D 00 00 00 FF 7D
can2 18EBFF00 [8] 04 01 64 00 04 01 6C 00
can2 08FE6E0B [8] 00 00 00 00 00 00 00 00
can2 08FE6E0B [8] 00 00 00 00 00 00 00 00
can2 0CF00400 [8] FE 7D 7D 00 00 00 FF 7D
can2 18FEF000 [8] FF FF FF 00 00 F0 CC FF
can2 0CF00400 [8] FE 7D 7D 00 00 00 FF 7D
can2 08FE6E0B [8] 00 00 00 00 00 00 00 00
can2 18FEDF00 [8] 8A E0 2E 7D FF FF FF FF
can2 18EBFF00 [8] 05 04 01 66 00 04 01 FF
can2 0CF00400 [8] FE 7D 7D 00 00 00 FF 7D
can2 18F00100 [8] FF FF FF CF 00 FF FF FF
can2 0CF00400 [8] FE 7D 7D 00 00 00 FF 7D
can2 08FE6E0B [8] 00 00 00 00 00 00 00 00
can2 18FEF100 [8] FF 00 00 50 00 00 00 C0
can2 18F0000F [8] C0 7D FF FF 0F FF FF FF
can2 0CF00300 [8] F9 FE 00 FF FF FF FF FF
can2 0CF00400 [8] FE 7D 7D 00 00 00 FF 7D
can2 08FE6E0B [8] 00 00 00 00 00 00 00 00
can2 18F0010B [8] CF FF F0 FF FF DC FF FF
can2 08FE6E0B [8] 00 00 00 00 00 00 00 00
can2 0CF00400 [8] FE 7D 7D 00 00 00 FF 7D
can2 18F00100 [8] FF FF FF CF 00 FF FF FF
can2 0CF00400 [8] FE 7D 7D 00 00 00 FF 7D
can2 18F0010B [8] CF FF F0 FF FF DC FF FF
can2 18FEF000 [8] FF FF FF 00 00 F0 CC FF
can2 18FEF200 [8] 00 00 00 00 3C 05 FF FF
can2 0CF00400 [8] FE 7D 7D 00 00 00 FF 7D
can2 0CF00400 [8] FE 7D 7D 00 00 00 FF 7D
can2 0CF00300 [8] F9 FE 00 FF FF FF FF FF
can2 0CF00400 [8] FE 7D 7D 00 00 00 FF 7D
can2 18FEDF00 [8] 8A E0 2E 7D FF FF FF FF
can2 18FEF100 [8] FF 00 00 50 00 00 00 C0
can2 08FE6E0B [8] 00 00 00 00 00 00 00 00
can2 0CF00400 [8] FE 7D 7D 00 00 00 FF 7D
can2 18FEF000 [8] FF FF FF 00 00 F0 CC FF
can2 0CF00400 [8] FE 7D 7D 00 00 00 FF 7D
can2 18FEF200 [8] 00 00 00 00 3C 05 FF FF
can2 0CF00400 [8] FE 7D 7D 00 00 00 FF 7D
can2 08FE6E0B [8] 00 00 00 00 00 00 00 00
can2 0CF00400 [8] FE 7D 7D 00 00 00 FF 7D
can2 0CF00300 [8] F9 FE 00 FF FF FF FF FF
can2 0CF00400 [8] FE 7D 7D 00 00 00 FF 7D
can2 18F0010B [8] CF FF F0 FF FF DC FF FF
can2 0CF00400 [8] FE 7D 7D 00 00 00 FF 7D
can2 18FEF000 [8] FF FF FF 00 00 F0 CC FF
can2 18FEF100 [8] FF 00 00 50 00 00 00 C0
can2 18FEF700 [8] FF FF FF FF E6 00 FF FF
can2 18FEF200 [8] 00 00 00 00 3C 05 FF FF
can2 18FEAE00 [8] FE FF FF FF FF FF FF FF
can2 0CF00400 [8] FE 7D 7D 00 00 00 FF 7D
can2 0CF00300 [8] F9 FE 00 FF FF FF FF FF
can2 08FE6E0B [8] 00 00 00 00 00 00 00 00
can2 0CF00400 [8] FE 7D 7D 00 00 00 FF 7D
can2 18FEF000 [8] FF FF FF 00 00 F0 CC FF
can2 0CF00400 [8] FE 7D 7D 00 00 00 FF 7D
can2 08FE6E0B [8] 00 00 00 00 00 00 00 00
can2 0CF00400 [8] FE 7D 7D 00 00 00 FF 7D
can2 18FEF200 [8] 00 00 00 00 3C 05 FF FF
can2 0CF00400 [8] FE 7D 7D 00 00 00 FF 7D
can2 08FE6E0B [8] 00 00 00 00 00 00 00 00
can2 0CF00400 [8] FE 7D 7D 00 00 00 FF 7D
can2 0CF00400 [8] FE 7D 7D 00 00 00 FF 7D
can2 18EBFF0B [8] 01 04 FF 73 02 04 7F 73
can2 08FE6E0B [8] 00 00 00 00 00 00 00 00
can2 0CF00400 [8] FE 7D 7D 00 00 00 FF 7D
can2 18FEF100 [8] FF 00 00 50 00 00 00 C0
can2 0CF00400 [8] FE 7D 7D 00 00 00 FF 7D
can2 0CF00300 [8] F9 FE 00 FF FF FF FF FF
can2 0CF00400 [8] FE 7D 7D 00 00 00 FF 7D
can2 18FEEE00 [8] 17 FF 00 20 FF FF FF FF
can2 0CF00400 [8] FE 7D 7D 00 00 00 FF 7D
can2 08FE6E0B [8] 00 00 00 00 00 00 00 00
can2 0CF00400 [8] FE 7D 7D 00 00 00 FF 7D
can2 0CF00400 [8] FE 7D 7D 00 00 00 FF 7D
can2 18FEF000 [8] FF FF FF 00 00 F0 CC FF
can2 0CF00400 [8] FE 7D 7D 00 00 00 FF 7D
can2 0CF00300 [8] F9 FE 00 FF FF FF FF FF
can2 08FE6E0B [8] 00 00 00 00 00 00 00 00
can2 0CF00400 [8] FE 7D 7D 00 00 00 FF 7D
can2 08FE6E0B [8] 00 00 00 00 00 00 00 00
can2 0CF00400 [8] FE 7D 7D 00 00 00 FF 7D
can2 08FE6E0B [8] 00 00 00 00 00 00 00 00
can2 18FEF100 [8] FF 00 00 50 00 00 00 C0
can2 08FE6E0B [8] 00 00 00 00 00 00 00 00
can2 0CF00400 [8] FE 7D 7D 00 00 00 FF 7D
can2 18FEBF0B [8] 00 00 7D 7D 7D 7D FF FF
can2 0CF00400 [8] FE 7D 7D 00 00 00 FF 7D
can2 08FE6E0B [8] 00 00 00 00 00 00 00 00
can2 18FEEF00 [8] FF FF FF FE FF FF FF FF
can2 08FE6E0B [8] 00 00 00 00 00 00 00 00
can2 0CF00400 [8] FE 7D 7D 00 00 00 FF 7D
can2 08FE6E0B [8] 00 00 00 00 00 00 00 00
can2 0CF00400 [8] FE 7D 7D 00 00 00 FF 7D
can2 08FE6E0B [8] 00 00 00 00 00 00 00 00
can2 18FEF600 [8] FF 00 19 FF FF FF FF FF
can2 08FE6E0B [8] 00 00 00 00 00 00 00 00
can2 18F0010B [8] CF FF F0 FF FF DC FF FF
can2 18FEBF0B [8] 00 00 7D 7D 7D 7D FF FF
can2 18EBFF00 [8] 04 01 64 00 04 01 6C 00
can2 08FE6E0B [8] 00 00 00 00 00 00 00 00
can2 0CF00400 [8] FE 7D 7D 00 00 00 FF 7D
can2 08FE6E0B [8] 00 00 00 00 00 00 00 00
can2 18FEF100 [8] FF 00 00 50 00 00 00 C0
can2 08FE6E0B [8] 00 00 00 00 00 00 00 00
can2 0CF00400 [8] FE 7D 7D 00 00 00 FF 7D
can2 08FE6E0B [8] 00 00 00 00 00 00 00 00
can2 18F00100 [8] FF FF FF CF 00 FF FF FF
can2 18FEBF0B [8] 00 00 7D 7D 7D 7D FF FF
can2 0CF00400 [8] FE 7D 7D 00 00 00 FF 7D
can2 0CF00400 [8] FE 7D 7D 00 00 00 FF 7D
can2 0CF00400 [8] FE 7D 7D 00 00 00 FF 7D
can2 18FEF100 [8] FF 00 00 50 00 00 00 C0
can2 08FE6E0B [8] 00 00 00 00 00 00 00 00
can2 0CF00400 [8] FE 7D 7D 00 00 00 FF 7D
can2 08FE6E0B [8] 00 00 00 00 00 00 00 00
can2 18FEBF0B [8] 00 00 7D 7D 7D 7D FF FF
can2 0CF00400 [8] FE 7D 7D 00 00 00 FF 7D
can2 08FE6E0B [8] 00 00 00 00 00 00 00 00
can2 08FE6E0B [8] 00 00 00 00 00 00 00 00
can2 0CF00400 [8] FE 7D 7D 00 00 00 FF 7D
can2 18F00100 [8] FF FF FF CF 00 FF FF FF
can2 0CF00400 [8] FE 7D 7D 00 00 00 FF 7D
can2 08FE6E0B [8] 00 00 00 00 00 00 00 00
can2 0CF00300 [8] F9 FE 00 FF FF FF FF FF
can2 18F0010B [8] CF FF F0 FF FF DC FF FF
can2 0CF00400 [8] FE 7D 7D 00 00 00 FF 7D
can2 0CF00300 [8] F9 FE 00 FF FF FF FF FF
can2 0CF00400 [8] FE 7D 7D 00 00 00 FF 7D
can2 18FEDF00 [8] 8A E0 2E 7D FF FF FF FF
can2 0CF00400 [8] FE 7D 7D 00 00 00 FF 7D
can2 08FE6E0B [8] 00 00 00 00 00 00 00 00
can2 0CF00400 [8] FE 7D 7D 00 00 00 FF 7D
can2 0CF00400 [8] FE 7D 7D 00 00 00 FF 7D
can2 18FEF000 [8] FF FF FF 00 00 F0 CC FF
can2 08FE6E0B [8] 00 00 00 00 00 00 00 00
can2 0CF00400 [8] FE 7D 7D 00 00 00 FF 7D
can2 0CF00400 [8] FE 7D 7D 00 00 00 FF 7D
can2 18FEEF00 [8] FF FF FF FE FF FF FF FF
can2 08FE6E0B [8] 00 00 00 00 00 00 00 00
can2 0CF00400 [8] FE 7D 7D 00 00 00 FF 7D
can2 08FE6E0B [8] 00 00 00 00 00 00 00 00
can2 18F0010B [8] CF FF F0 FF FF DC FF FF
can2 08FE6E0B [8] 00 00 00 00 00 00 00 00
can2 0CF00400 [8] FE 7D 7D 00 00 00 FF 7D
can2 08FE6E0B [8] 00 00 00 00 00 00 00 00
can2 0CF00400 [8] FE 7D 7D 00 00 00 FF 7D
can2 08FE6E0B [8] 00 00 00 00 00 00 00 00
can2 18FEAE00 [8] FE FF FF FF FF FF FF FF
can2 08FE6E0B [8] 00 00 00 00 00 00 00 00
can2 0CF00400 [8] FE 7D 7D 00 00 00 FF 7D
can2 08FE6E0B [8] 00 00 00 00 00 00 00 00
can2 18FEF100 [8] FF 00 00 50 00 00 00 C0
can2 08FE6E0B [8] 00 00 00 00 00 00 00 00
can2 0CF00400 [8] FE 7D 7D 00 00 00 FF 7D
can2 08FE6E0B [8] 00 00 00 00 00 00 00 00
can2 0CF00300 [8] F9 FE 00 FF FF FF FF FF
can2 18FEBF0B [8] 00 00 7D 7D 7D 7D FF FF
can2 08FE6E0B [8] 00 00 00 00 00 00 00 00
can2 0CF00400 [8] FE 7D 7D 00 00 00 FF 7D
can2 18ECFF0B [8] 20 0A 00 02 FF CA FE 00
can2 08FE6E0B [8] 00 00 00 00 00 00 00 00
can2 18FEF100 [8] FF 00 00 50 00 00 00 C0
can2 18EBFF0B [8] 01 04 FF 73 02 04 7F 73
can2 0CF00400 [8] FE 7D 7D 00 00 00 FF 7D
can2 08FE6E0B [8] 00 00 00 00 00 00 00 00
can2 0CF00300 [8] F9 FE 00 FF FF FF FF FF
can2 18FEBF0B [8] 00 00 7D 7D 7D 7D FF FF
can2 18EBFF0B [8] 02 02 04 7F FF FF FF FF
can2 08FE6E0B [8] 00 00 00 00 00 00 00 00
can2 0CF00300 [8] F9 FE 00 FF FF FF FF FF
can2 08FE6E0B [8] 00 00 00 00 00 00 00 00
can2 0CF00400 [8] FE 7D 7D 00 00 00 FF 7D
can2 0CF00400 [8] FE 7D 7D 00 00 00 FF 7D
can2 18ECFF00 [8] 20 22 00 05 FF CA FE 00
can2 18F0010B [8] CF FF F0 FF FF DC FF FF
can2 18FEBF0B [8] 00 00 7D 7D 7D 7D FF FF
can2 0CF00400 [8] FE 7D 7D 00 00 00 FF 7D
can2 0CF00400 [8] FE 7D 7D 00 00 00 FF 7D
can2 08FE6E0B [8] 00 00 00 00 00 00 00 00
can2 0CF00400 [8] FE 7D 7D 00 00 00 FF 7D
can2 08FE6E0B [8] 00 00 00 00 00 00 00 00
can2 08FE6E0B [8] 00 00 00 00 00 00 00 00
can2 18EBFF00 [8] 01 14 FF 73 02 02 01 5E
can2 0CF00300 [8] F9 FE 00 FF FF FF FF FF
can2 18FEBF0B [8] 00 00 7D 7D 7D 7D FF FF
can2 08FE6E0B [8] 00 00 00 00 00 00 00 00
can2 0CF00400 [8] FE 7D 7D 00 00 00 FF 7D
can2 18FEEF00 [8] FF FF FF FE FF FF FF FF
can2 08FE6E0B [8] 00 00 00 00 00 00 00 00
can2 0CF00400 [8] FE 7D 7D 00 00 00 FF 7D
can2 08FE6E0B [8] 00 00 00 00 00 00 00 00
can2 18EBFF00 [8] 03 6F 00 02 01 5B 00 04
can2 08FE6E0B [8] 00 00 00 00 00 00 00 00
can2 0CF00400 [8] FE 7D 7D 00 00 00 FF 7D
can2 08FE6E0B [8] 00 00 00 00 00 00 00 00
can2 0CF00400 [8] FE 7D 7D 00 00 00 FF 7D
can2 18FEF100 [8] FF 00 00 50 00 00 00 C0
can2 18FEF000 [8] FF FF FF 00 00 F0 CC FF
can2 0CF00400 [8] FE 7D 7D 00 00 00 FF 7D
can2 18FEF100 [8] FF 00 00 50 00 00 00 C0
can2 08FE6E0B [8] 00 00 00 00 00 00 00 00
can2 0CF00400 [8] FE 7D 7D 00 00 00 FF 7D
can2 08FE6E0B [8] 00 00 00 00 00 00 00 00
can2 18F0010B [8] CF FF F0 FF FF DC FF FF
can2 18F00100 [8] FF FF FF CF 00 FF FF FF
can2 08FE6E0B [8] 00 00 00 00 00 00 00 00
can2 18FEBF0B [8] 00 00 7D 7D 7D 7D FF FF
can2 0CF00300 [8] F9 FE 00 FF FF FF FF FF
can2 18FEF000 [8] FF FF FF 00 00 F0 CC FF
can2 18F0000F [8] C0 7D FF FF 0F FF FF FF
can2 0CF00400 [8] FE 7D 7D 00 00 00 FF 7D
can2 0CF00400 [8] FE 7D 7D 00 00 00 FF 7D
can2 18FEF200 [8] 00 00 00 00 3C 05 FF FF
can2 0CF00400 [8] FE 7D 7D 00 00 00 FF 7D
can2 0CF00300 [8] F9 FE 00 FF FF FF FF FF
can2 0CF00400 [8] FE 7D 7D 00 00 00 FF 7D
can2 0CF00400 [8] FE 7D 7D 00 00 00 FF 7D
can2 08FE6E0B [8] 00 00 00 00 00 00 00 00
can2 08FE6E0B [8] 00 00 00 00 00 00 00 00
can2 18FEF000 [8] FF FF FF 00 00 F0 CC FF
can2 0CF00400 [8] FE 7D 7D 00 00 00 FF 7D
can2 18FEF200 [8] 00 00 00 00 3C 05 FF FF
can2 0CF00400 [8] FE 7D 7D 00 00 00 FF 7D
can2 18FEF100 [8] FF 00 00 50 00 00 00 C0
can2 08FE6E0B [8] 00 00 00 00 00 00 00 00
can2 0CF00300 [8] F9 FE 00 FF FF FF FF FF
can2 0CF00400 [8] FE 7D 7D 00 00 00 FF 7D
can2 18FEDF00 [8] 8A E0 2E 7D FF FF FF FF
can2 08FE6E0B [8] 00 00 00 00 00 00 00 00
can2 18FEF000 [8] FF FF FF 00 00 F0 CC FF
can2 0CF00400 [8] FE 7D 7D 00 00 00 FF 7D
can2 18FEF200 [8] 00 00 00 00 3C 05 FF FF
can2 0CF00400 [8] FE 7D 7D 00 00 00 FF 7D
can2 18FEF100 [8] FF 00 00 50 00 00 00 C0
can2 08FE6E0B [8] 00 00 00 00 00 00 00 00
can2 0CF00300 [8] F9 FE 00 FF FF FF FF FF
can2 0CF00400 [8] FE 7D 7D 00 00 00 FF 7D
can2 18FEEF00 [8] FF FF FF FE FF FF FF FF
can2 08FE6E0B [8] 00 00 00 00 00 00 00 00
can2 18FEF000 [8] FF FF FF 00 00 F0 CC FF
can2 0CF00400 [8] FE 7D 7D 00 00 00 FF 7D
can2 18FEF200 [8] 00 00 00 00 3C 05 FF FF
can2 0CF00400 [8] FE 7D 7D 00 00 00 FF 7D
can2 18FEF100 [8] FF 00 00 50 00 00 00 C0
can2 08FE6E0B [8] 00 00 00 00 00 00 00 00
can2 0CF00300 [8] F9 FE 00 FF FF FF FF FF
can2 0CF00400 [8] FE 7D 7D 00 00 00 FF 7D
can2 18FEAE00 [8] FE FF FF FF FF FF FF FF
can2 08FE6E0B [8] 00 00 00 00 00 00 00 00
can2 18FEF000 [8] FF FF FF 00 00 F0 CC FF
can2 0CF00400 [8] FE 7D 7D 00 00 00 FF 7D
can2 18FEF100 [8] FF 00 00 50 00 00 00 C0
can2 08FE6E0B [8] 00 00 00 00 00 00 00 00
can2 18FEF200 [8] 00 00 00 00 3C 05 FF FF
can2 08FE6E0B [8] 00 00 00 00 00 00 00 00
can2 0CF00400 [8] FE 7D 7D 00 00 00 FF 7D
can2 0CF00400 [8] FE 7D 7D 00 00 00 FF 7D
can2 0CF00300 [8] F9 FE 00 FF FF FF FF FF
can2 08FE6E0B [8] 00 00 00 00 00 00 00 00
can2 18FEF000 [8] FF FF FF 00 00 F0 CC FF
can2 0CF00400 [8] FE 7D 7D 00 00 00 FF 7D
can2 18FEF100 [8] FF 00 00 50 00 00 00 C0
can2 08FE6E0B [8] 00 00 00 00 00 00 00 00
can2 18FEF200 [8] 00 00 00 00 3C 05 FF FF
can2 0CF00400 [8] FE 7D 7D 00 00 00 FF 7D
can2 18FEEE00 [8] 17 FF 00 20 FF FF FF FF
can2 0CF00400 [8] FE 7D 7D 00 00 00 FF 7D
can2 0CF00300 [8] F9 FE 00 FF FF FF FF FF
can2 18FEF000 [8] FF FF FF 00 00 F0 CC FF
can2 0CF00400 [8] FE 7D 7D 00 00 00 FF 7D
can2 18FEF100 [8] FF 00 00 50 00 00 00 C0
can2 18ECFF00 [8] 20 22 00 05 FF CA FE 00
can2 0CF00400 [8] FE 7D 7D 00 00 00 FF 7D
can2 18FEF200 [8] 00 00 00 00 3C 05 FF FF
can2 08FE6E0B [8] 00 00 00 00 00 00 00 00
can2 18FEDF00 [8] 8A E0 2E 7D FF FF FF FF
can2 18FEBF0B [8] 00 00 7D 7D 7D 7D FF FF
can2 0CF00300 [8] F9 FE 00 FF FF FF FF FF
can2 08FE6E0B [8] 00 00 00 00 00 00 00 00
can2 18FEF000 [8] FF FF FF 00 00 F0 CC FF
can2 08FE6E0B [8] 00 00 00 00 00 00 00 00
can2 0CF00400 [8] FE 7D 7D 00 00 00 FF 7D
can2 08FE6E0B [8] 00 00 00 00 00 00 00 00
can2 18F0010B [8] CF FF F0 FF FF DC FF FF
can2 18FEBF0B [8] 00 00 7D 7D 7D 7D FF FF
can2 18FEEF00 [8] FF FF FF FE FF FF FF FF
can2 08FE6E0B [8] 00 00 00 00 00 00 00 00
can2 18F00100 [8] FF FF FF CF 00 FF FF FF
can2 08FE6E0B [8] 00 00 00 00 00 00 00 00
can2 08FE6E0B [8] 00 00 00 00 00 00 00 00
can2 18FEF000 [8] FF FF FF 00 00 F0 CC FF
can2 0CF00400 [8] FE 7D 7D 00 00 00 FF 7D
can2 18FEF200 [8] 00 00 00 00 3C 05 FF FF
can2 0CF00400 [8] FE 7D 7D 00 00 00 FF 7D
can2 18FEF100 [8] FF 00 00 50 00 00 00 C0
can2 08FE6E0B [8] 00 00 00 00 00 00 00 00
can2 0CF00300 [8] F9 FE 00 FF FF FF FF FF
can2 0CF00400 [8] FE 7D 7D 00 00 00 FF 7D
can2 18EBFF00 [8] 04 01 64 00 04 01 6C 00
can2 18F0010B [8] CF FF F0 FF FF DC FF FF
can2 0CF00400 [8] FE 7D 7D 00 00 00 FF 7D
can2 0CF00400 [8] FE 7D 7D 00 00 00 FF 7D
can2 18FEF100 [8] FF 00 00 50 00 00 00 C0
can2 0CF00400 [8] FE 7D 7D 00 00 00 FF 7D
can2 0CF00300 [8] F9 FE 00 FF FF FF FF FF
can2 0CF00400 [8] FE 7D 7D 00 00 00 FF 7D
can2 0CF00400 [8] FE 7D 7D 00 00 00 FF 7D
can2 08FE6E0B [8] 00 00 00 00 00 00 00 00
can2 18FEF000 [8] FF FF FF 00 00 F0 CC FF
can2 0CF00400 [8] FE 7D 7D 00 00 00 FF 7D
can2 18FEF100 [8] FF 00 00 50 00 00 00 C0
can2 0CF00400 [8] FE 7D 7D 00 00 00 FF 7D
can2 0CF00400 [8] FE 7D 7D 00 00 00 FF 7D
can2 18FEF200 [8] 00 00 00 00 3C 05 FF FF
can2 18FEBF0B [8] 00 00 7D 7D 7D 7D FF FF
can2 08FE6E0B [8] 00 00 00 00 00 00 00 00
can2 08FE6E0B [8] 00 00 00 00 00 00 00 00
can2 0CF00400 [8] FE 7D 7D 00 00 00 FF 7D
can2 18FEF000 [8] FF FF FF 00 00 F0 CC FF
can2 08FE6E0B [8] 00 00 00 00 00 00 00 00
can2 18FEF100 [8] FF 00 00 50 00 00 00 C0
can2 0CF00400 [8] FE 7D 7D 00 00 00 FF 7D
can2 08FE6E0B [8] 00 00 00 00 00 00 00 00
can2 18F0010B [8] CF FF F0 FF FF DC FF FF
can2 08FE6E0B [8] 00 00 00 00 00 00 00 00
can2 18FEDF00 [8] 8A E0 2E 7D FF FF FF FF
can2 18FEBF0B [8] 00 00 7D 7D 7D 7D FF FF
can2 0CF00300 [8] F9 FE 00 FF FF FF FF FF
can2 08FE6E0B [8] 00 00 00 00 00 00 00 00
can2 18FEF000 [8] FF FF FF 00 00 F0 CC FF
can2 08FE6E0B [8] 00 00 00 00 00 00 00 00
can2 0CF00400 [8] FE 7D 7D 00 00 00 FF 7D
can2 08FE6E0B [8] 00 00 00 00 00 00 00 00
can2 18F0010B [8] CF FF F0 FF FF DC FF FF
can2 18FEBF0B [8] 00 00 7D 7D 7D 7D FF FF
can2 18FEE400 [8] FF 3F FD FF 30 7F FF FF
can2 18FEEF00 [8] FF FF FF FE FF FF FF FF
can2 08FE6E0B [8] 00 00 00 00 00 00 00 00
can2 18EBFF00 [8] 01 00 19 CB 30 39 C3 38
can2 18FEF000 [8] FF FF FF 00 00 F0 CC FF
can2 18F0000F [8] C0 7D FF FF 0F FF FF FF
can2 0CF00400 [8] FE 7D 7D 00 00 00 FF 7D
can2 0CF00400 [8] FE 7D 7D 00 00 00 FF 7D
can2 0CF00400 [8] FE 7D 7D 00 00 00 FF 7D
can2 18FEF200 [8] 00 00 00 00 3C 05 FF FF
can2 08FE6E0B [8] 00 00 00 00 00 00 00 00
can2 08FE6E0B [8] 00 00 00 00 00 00 00 00
can2 18FEAE00 [8] FE FF FF FF FF FF FF FF
can2 0CF00400 [8] FE 7D 7D 00 00 00 FF 7D
can2 08FE6E0B [8] 00 00 00 00 00 00 00 00
can2 18FEF000 [8] FF FF FF 00 00 F0 CC FF
can2 0CF00400 [8] FE 7D 7D 00 00 00 FF 7D
can2 18FEF100 [8] FF 00 00 50 00 00 00 C0
can2 0CF00300 [8] F9 FE 00 FF FF FF FF FF
can2 18FEF200 [8] 00 00 00 00 3C 05 FF FF
can2 18FEBF0B [8] 00 00 7D 7D 7D 7D FF FF
can2 18ECFF0B [8] 20 0A 00 02 FF CA FE 00
can2 18EBFF0F [8] 01 03 06 60 22 54 A0 41
can2 08FE6E0B [8] 00 00 00 00 00 00 00 00
can2 18FEF100 [8] FF 00 00 50 00 00 00 C0
can2 0CF00400 [8] FE 7D 7D 00 00 00 FF 7D
can2 18FEF000 [8] FF FF FF 00 00 F0 CC FF
can2 18EBFF0F [8] 02 19 E0 2E 3B 20 35 28
can2 08FE6E0B [8] 00 00 00 00 00 00 00 00
can2 18FEEE00 [8] 17 FF 00 20 FF FF FF FF
can2 18FEBF0B [8] 00 00 7D 7D 7D 7D FF FF
can2 18EBFF0B [8] 02 02 04 7F FF FF FF FF
can2 0CF00300 [8] F9 FE 00 FF FF FF FF FF
can2 08FE6E0B [8] 00 00 00 00 00 00 00 00
can2 18FEF000 [8] FF FF FF 00 00 F0 CC FF
can2 08FE6E0B [8] 00 00 00 00 00 00 00 00
can2 18ECFF00 [8] 20 22 00 05 FF CA FE 00
can2 08FE6E0B [8] 00 00 00 00 00 00 00 00
can2 18F0010B [8] CF FF F0 FF FF DC FF FF
can2 08FE6E0B [8] 00 00 00 00 00 00 00 00
can2 18FEDF00 [8] 8A E0 2E 7D FF FF FF FF
can2 18FEBF0B [8] 00 00 7D 7D 7D 7D FF FF
can2 0CF00300 [8] F9 FE 00 FF FF FF FF FF
can2 08FE6E0B [8] 00 00 00 00 00 00 00 00
can2 18FEF000 [8] FF FF FF 00 00 F0 CC FF
can2 08FE6E0B [8] 00 00 00 00 00 00 00 00
can2 0CF00400 [8] FE 7D 7D 00 00 00 FF 7D
can2 08FE6E0B [8] 00 00 00 00 00 00 00 00
can2 18F0010B [8] CF FF F0 FF FF DC FF FF
can2 18FEBF0B [8] 00 00 7D 7D 7D 7D FF FF
can2 18EBFF00 [8] 02 00 04 01 78 02 03 01
can2 0CF00400 [8] FE 7D 7D 00 00 00 FF 7D
can2 18FEEF00 [8] FF FF FF FE FF FF FF FF
can2 0CF00300 [8] F9 FE 00 FF FF FF FF FF
can2 08FE6E0B [8] 00 00 00 00 00 00 00 00
can2 18FEF000 [8] FF FF FF 00 00 F0 CC FF
can2 08FE6E0B [8] 00 00 00 00 00 00 00 00
can2 0CF00300 [8] F9 FE 00 FF FF FF FF FF
can2 08FE6E0B [8] 00 00 00 00 00 00 00 00
can2 18F0010B [8] CF FF F0 FF FF DC FF FF
can2 18FEBF0B [8] 00 00 7D 7D 7D 7D FF FF
can2 08FE6E0B [8] 00 00 00 00 00 00 00 00
can2 18EBFF00 [8] 04 01 64 00 04 01 6C 00
can2 0CF00400 [8] FE 7D 7D 00 00 00 FF 7D
can2 18FEF000 [8] FF FF FF 00 00 F0 CC FF
can2 0CF00400 [8] FE 7D 7D 00 00 00 FF 7D
can2 0CF00300 [8] F9 FE 00 FF FF FF FF FF
can2 18FEDF00 [8] 8A E0 2E 7D FF FF FF FF
can2 18EBFF00 [8] 05 04 01 66 00 04 01 FF
can2 18FEBF0B [8] 00 00 7D 7D 7D 7D FF FF
can2 08FE6E0B [8] 00 00 00 00 00 00 00 00
can2 0CF00400 [8] FE 7D 7D 00 00 00 FF 7D
can2 08FE6E0B [8] 00 00 00 00 00 00 00 00
can2 18FEF100 [8] FF 00 00 50 00 00 00 C0
can2 18F0000F [8] C0 7D FF FF 0F FF FF FF
can2 0CF00300 [8] F9 FE 00 FF FF FF FF FF
can2 0CF00400 [8] FE 7D 7D 00 00 00 FF 7D
can2 0CF00300 [8] F9 FE 00 FF FF FF FF FF
can2 18F0010B [8] CF FF F0 FF FF DC FF FF
can2 18FEBF0B [8] 00 00 7D 7D 7D 7D FF FF
can2 0CF00400 [8] FE 7D 7D 00 00 00 FF 7D
can2 08FE6E0B [8] 00 00 00 00 00 00 00 00
can2 0CF00400 [8] FE 7D 7D 00 00 00 FF 7D
can2 18FEF000 [8] FF FF FF 00 00 F0 CC FF
can2 0CF00400 [8] FE 7D 7D 00 00 00 FF 7D
can2 18FEF100 [8] FF 00 00 50 00 00 00 C0
can2 08FE6E0B [8] 00 00 00 00 00 00 00 00
can2 0CF00400 [8] FE 7D 7D 00 00 00 FF 7D
can2 18FEF200 [8] 00 00 00 00 3C 05 FF FF
can2 0CF00400 [8] FE 7D 7D 00 00 00 FF 7D
can2 08FE6E0B [8] 00 00 00 00 00 00 00 00
can2 0CF00400 [8] FE 7D 7D 00 00 00 FF 7D
can2 18FEF000 [8] FF FF FF 00 00 F0 CC FF
can2 0CF00400 [8] FE 7D 7D 00 00 00 FF 7D
can2 08FE6E0B [8] 00 00 00 00 00 00 00 00
can2 0CF00400 [8] FE 7D 7D 00 00 00 FF 7D
can2 18FEF200 [8] 00 00 00 00 3C 05 FF FF
can2 0CF00400 [8] FE 7D 7D 00 00 00 FF 7D
can2 18FEEF00 [8] FF FF FF FE FF FF FF FF
can2 0CF00400 [8] FE 7D 7D 00 00 00 FF 7D
can2 08FE6E0B [8] 00 00 00 00 00 00 00 00
can2 0CF00400 [8] FE 7D 7D 00 00 00 FF 7D
can2 0CF00400 [8] FE 7D 7D 00 00 00 FF 7D
can2 18FEF000 [8] FF FF FF 00 00 F0 CC FF
can2 0CF00400 [8] FE 7D 7D 00 00 00 FF 7D
